T3200 20009:386 SEGGER J-Link V6.46 Log File (0002ms, 166326ms total)
T3200 20009:386 DLL Compiled: May 23 2019 17:49:56 (0002ms, 166326ms total)
T3200 20009:386 Logging started @ 2019-10-14 17:30 (0002ms, 166326ms total)
T3200 20009:388 JLINK_SetWarnOutHandler(...) (0000ms, 166326ms total)
T3200 20009:388 JLINK_OpenEx(...)
Firmware: J-Link V9 compiled Jun  2 2222 22:22:22
Hardware: V9.40
S/N: 59401308
Feature(s): GDB, RDI, FlashBP, FlashDL, JFlash, RDDI
TELNET listener socket opened on port 19021WEBSRV 
Starting webserver (0408ms, 166734ms total)
T3200 20009:388 WEBSRV Webserver running on local port 19080 (0409ms, 166735ms total)
T3200 20009:388   returns O.K. (0410ms, 166736ms total)
T3200 20009:799 JLINK_GetEmuCaps()  returns 0xB9FF7BBF (0000ms, 166736ms total)
T3200 20009:800 JLINK_TIF_GetAvailable(...) (0001ms, 166737ms total)
T3200 20009:801 JLINK_SetErrorOutHandler(...) (0000ms, 166737ms total)
T3200 20009:801 JLINK_ExecCommand("ProjectFile = "D:\Users\Hellfire\Desktop\STM32F427(V1012)\Project\MDK-ARM(AC5)\JLinkSettings.ini"", ...).   returns 0x00 (0017ms, 166754ms total)
T3200 20009:853 JLINK_ExecCommand("Device = STM32F427VITx", ...). Device "STM32F427VI" selected.  returns 0x00 (0043ms, 166797ms total)
T3200 20009:896 JLINK_ExecCommand("DisableConnectionTimeout", ...).   returns 0x01 (0000ms, 166798ms total)
T3200 20009:897 JLINK_GetHardwareVersion()  returns 0x16F30 (0000ms, 166798ms total)
T3200 20009:897 JLINK_GetDLLVersion()  returns 64600 (0000ms, 166798ms total)
T3200 20009:897 JLINK_GetFirmwareString(...) (0000ms, 166798ms total)
T3200 20009:993 JLINK_GetDLLVersion()  returns 64600 (0000ms, 166798ms total)
T3200 20009:994 JLINK_GetCompileDateTime() (0000ms, 166799ms total)
T3200 20010:030 JLINK_GetFirmwareString(...) (0000ms, 166799ms total)
T3200 20010:066 JLINK_GetHardwareVersion()  returns 0x16F30 (0000ms, 166799ms total)
T3200 20010:205 JLINK_TIF_Select(JLINKARM_TIF_SWD)  returns 0x00 (0004ms, 166803ms total)
T3200 20010:209 JLINK_SetSpeed(20000) (0001ms, 166804ms total)
T3200 20010:210 JLINK_GetId() >0x10B TIF>Found SW-DP with ID 0x2BA01477 >0x0D TIF> >0x28 TIF> >0x0D TIF> >0x28 TIF> >0x0D TIF> >0x28 TIF> >0x0D TIF> >0x28 TIF> >0x0D TIF> >0x21 TIF> >0x0D TIF> >0x28 TIF> >0x0D TIF> >0x28 TIF> >0x0D TIF> >0x28 TIF> >0x0D TIF> >0x21 TIF> >0x0D TIF> >0x21 TIF> >0x0D TIF> >0x28 TIF> >0x0D TIF> >0x21 TIF> >0x0D TIF> >0x21 TIF> >0x0D TIF> >0x28 TIF> >0x0D TIF> >0x21 TIF> >0x0D TIF> >0x21 TIF> >0x0D TIF> >0x28 TIF> >0x0D TIF> >0x21 TIF> >0x0D TIF> >0x21 TIF> >0x0D TIF>
 >0x28 TIF> >0x0D TIF> >0x21 TIF> >0x0D TIF> >0x21 TIF> >0x0D TIF> >0x28 TIF> >0x0D TIF> >0x21 TIF> >0x0D TIF> >0x21 TIF> >0x0D TIF> >0x28 TIF> >0x0D TIF> >0x21 TIF> >0x0D TIF> >0x21 TIF> >0x10B TIF>Found SW-DP with ID 0x2BA01477 >0x0D TIF> >0x28 TIF> >0x0D TIF> >0x28 TIF> >0x0D TIF> >0x28 TIF> >0x0D TIF> >0x28 TIF> >0x0D TIF> >0x21 TIF> >0x0D TIF> >0x28 TIF>Scanning AP map to find all available APs >0x0D TIF> >0x28 TIF> >0x0D TIF> >0x21 TIF> >0x0D TIF> >0x21 TIF> >0x0D TIF> >0x28 TIF> >0x0D TIF>
 >0x21 TIF> >0x0D TIF> >0x21 TIF>AP[1]: Stopped AP scan as end of AP map has been reachedAP[0]: AHB-AP (IDR: 0x24770011)Iterating through AP map to find AHB-AP to use >0x42 TIF> >0x28 TIF> >0x0D TIF> >0x28 TIF> >0x0D TIF> >0x21 TIF> >0x0D TIF> >0x21 TIF> >0x42 TIF> >0x28 TIF> >0x0D TIF> >0x28 TIF> >0x0D TIF> >0x28 TIF> >0x0D TIF> >0x21 TIF> >0x0D TIF> >0x21 TIF>AP[0]: Core foundAP[0]: AHB-AP ROM base: 0xE00FF000 >0x0D TIF> >0x28 TIF> >0x0D TIF> >0x28 TIF> >0x0D TIF> >0x28 TIF> >0x0D TIF> >0x21 TIF>
 >0x0D TIF> >0x21 TIF>CPUID register: 0x410FC241. Implementer code: 0x41 (ARM)Found Cortex-M4 r0p1, Little endian. -- Max. mem block: 0x00010FB0 -- CPU_ReadMem(4 bytes @ 0xE000EDF0) -- CPU_WriteMem(4 bytes @ 0xE000EDF0) -- CPU_ReadMem(4 bytes @ 0xE0002000)FPUnit: 6 code (BP) slots and 2 literal slots -- CPU_ReadMem(4 bytes @ 0xE000EDFC) -- CPU_ReadMem(4 bytes @ 0xE0001000) -- CPU_WriteMem(4 bytes @ 0xE0001000) -- CPU_ReadMem(4 bytes @ 0xE000ED88) -- CPU_WriteMem(4 bytes @ 0xE000ED88)
 -- CPU_ReadMem(4 bytes @ 0xE000ED88) -- CPU_WriteMem(4 bytes @ 0xE000ED88)CoreSight components:ROMTbl[0] @ E00FF000 -- CPU_ReadMem(16 bytes @ 0xE00FF000) -- CPU_ReadMem(16 bytes @ 0xE000EFF0) -- CPU_ReadMem(16 bytes @ 0xE000EFE0)ROMTbl[0][0]: E000E000, CID: B105E00D, PID: 000BB00C SCS-M7 -- CPU_ReadMem(16 bytes @ 0xE0001FF0) -- CPU_ReadMem(16 bytes @ 0xE0001FE0)ROMTbl[0][1]: E0001000, CID: B105E00D, PID: 003BB002 DWT -- CPU_ReadMem(16 bytes @ 0xE0002FF0) -- CPU_ReadMem(16 bytes @ 0xE0002FE0)
ROMTbl[0][2]: E0002000, CID: B105E00D, PID: 002BB003 FPB -- CPU_ReadMem(16 bytes @ 0xE0000FF0) -- CPU_ReadMem(16 bytes @ 0xE0000FE0)ROMTbl[0][3]: E0000000, CID: B105E00D, PID: 003BB001 ITM -- CPU_ReadMem(16 bytes @ 0xE00FF010) -- CPU_ReadMem(16 bytes @ 0xE0040FF0) -- CPU_ReadMem(16 bytes @ 0xE0040FE0)ROMTbl[0][4]: E0040000, CID: B105900D, PID: 000BB9A1 TPIU -- CPU_ReadMem(16 bytes @ 0xE0041FF0) -- CPU_ReadMem(16 bytes @ 0xE0041FE0)ROMTbl[0][5]: E0041000, CID: B105900D, PID: 000BB925 ETM >0x0D TIF>
 >0x21 TIF>  returns 0x2BA01477 (0873ms, 167677ms total)
T3200 20011:084 JLINK_GetDLLVersion()  returns 64600 (0000ms, 167677ms total)
T3200 20011:085 JLINK_CORE_GetFound()  returns 0xE0000FF (0001ms, 167678ms total)
T3200 20011:086 JLINK_GetDebugInfo(0x100 = JLINKARM_ROM_TABLE_ADDR_INDEX) -- Value=0xE00FF000  returns 0x00 (0000ms, 167678ms total)
T3200 20011:126 JLINK_GetDebugInfo(0x100 = JLINKARM_ROM_TABLE_ADDR_INDEX) -- Value=0xE00FF000  returns 0x00 (0000ms, 167678ms total)
T3200 20011:126 JLINK_GetDebugInfo(0x101 = JLINKARM_DEBUG_INFO_ETM_ADDR_INDEX) -- Value=0xE0041000  returns 0x00 (0000ms, 167678ms total)
T3200 20011:126 JLINK_ReadMemEx(0xE0041FD0, 0x0020 Bytes, ..., Flags = 0x02000004) -- CPU_ReadMem(32 bytes @ 0xE0041FD0) - Data: 04 00 00 00 00 00 00 00 00 00 00 00 00 00 00 00 ...  returns 0x20 (0002ms, 167680ms total)
T3200 20011:128 JLINK_GetDebugInfo(0x102 = JLINKARM_DEBUG_INFO_MTB_ADDR_INDEX) -- Value=0x00000000  returns 0x00 (0000ms, 167680ms total)
T3200 20011:128 JLINK_GetDebugInfo(0x103 = JLINKARM_DEBUG_INFO_TPIU_ADDR_INDEX) -- Value=0xE0040000  returns 0x00 (0000ms, 167680ms total)
T3200 20011:129 JLINK_GetDebugInfo(0x104 = JLINKARM_DEBUG_INFO_ITM_ADDR_INDEX) -- Value=0xE0000000  returns 0x00 (0000ms, 167680ms total)
T3200 20011:129 JLINK_GetDebugInfo(0x105 = JLINKARM_DEBUG_INFO_DWT_ADDR_INDEX) -- Value=0xE0001000  returns 0x00 (0000ms, 167680ms total)
T3200 20011:129 JLINK_GetDebugInfo(0x106 = JLINKARM_DEBUG_INFO_FPB_ADDR_INDEX) -- Value=0xE0002000  returns 0x00 (0000ms, 167680ms total)
T3200 20011:129 JLINK_GetDebugInfo(0x107 = JLINKARM_DEBUG_INFO_NVIC_ADDR_INDEX) -- Value=0xE000E000  returns 0x00 (0000ms, 167680ms total)
T3200 20011:130 JLINK_GetDebugInfo(0x10C = JLINKARM_DEBUG_INFO_DBG_ADDR_INDEX) -- Value=0xE000EDF0  returns 0x00 (0000ms, 167681ms total)
T3200 20011:130 JLINK_GetDebugInfo(0x01 = Unknown) -- Value=0x00000001  returns 0x00 (0000ms, 167681ms total)
T3200 20011:130 JLINK_ReadMemU32(0xE000ED00, 0x0001 Items, ...) -- CPU_ReadMem(4 bytes @ 0xE000ED00) - Data: 41 C2 0F 41  returns 1 (0002ms, 167683ms total)
T3200 20011:132 JLINK_GetDebugInfo(0x10F = JLINKARM_DEBUG_INFO_HAS_CORTEX_M_SECURITY_EXT_INDEX) -- Value=0x00000000  returns 0x00 (0000ms, 167683ms total)
T3200 20011:132 JLINK_SetResetType(JLINKARM_CM3_RESET_TYPE_NORMAL)  returns JLINKARM_CM3_RESET_TYPE_NORMAL (0000ms, 167683ms total)
T3200 20011:132 JLINK_Reset() -- CPU is running -- CPU_WriteMem(4 bytes @ 0xE000EDF0) -- CPU is running -- CPU_WriteMem(4 bytes @ 0xE000EDFC)Reset: Halt core after reset via DEMCR.VC_CORERESET. >0x35 TIF>Reset: Reset device via AIRCR.SYSRESETREQ. -- CPU is running -- CPU_WriteMem(4 bytes @ 0xE000ED0C) >0x0D TIF> >0x28 TIF> -- CPU_ReadMem(4 bytes @ 0xE000EDF0) -- CPU_ReadMem(4 bytes @ 0xE000EDF0) -- CPU is running -- CPU_WriteMem(4 bytes @ 0xE000EDF0) -- CPU is running
 -- CPU_WriteMem(4 bytes @ 0xE000EDFC) -- CPU_ReadMem(4 bytes @ 0xE000EDF0) -- CPU_WriteMem(4 bytes @ 0xE0002000) -- CPU_ReadMem(4 bytes @ 0xE000EDFC) -- CPU_ReadMem(4 bytes @ 0xE0001000) (0140ms, 167823ms total)
T3200 20011:272 JLINK_Halt()  returns 0x00 (0001ms, 167824ms total)
T3200 20011:273 JLINK_ReadMemU32(0xE000EDF0, 0x0001 Items, ...) -- CPU_ReadMem(4 bytes @ 0xE000EDF0) - Data: 03 00 03 00  returns 1 (0001ms, 167825ms total)
T3200 20011:274 JLINK_WriteU32(0xE000EDF0, 0xA05F0003) -- CPU_WriteMem(4 bytes @ 0xE000EDF0)  returns 0 (0001ms, 167826ms total)
T3200 20011:276 JLINK_WriteU32(0xE000EDFC, 0x01000000) -- CPU_WriteMem(4 bytes @ 0xE000EDFC)  returns 0 (0001ms, 167828ms total)
T3200 20011:402 JLINK_GetHWStatus(...)  returns 0x00 (0001ms, 167829ms total)
T3200 20011:503 JLINK_GetNumBPUnits(Type = 0xFFFFFF00)  returns 0x06 (0001ms, 167830ms total)
T3200 20011:504 JLINK_GetNumBPUnits(Type = 0xF0)  returns 0x2000 (0000ms, 167830ms total)
T3200 20011:504 JLINK_GetNumWPUnits()  returns 0x04 (0000ms, 167830ms total)
T3200 20011:603 JLINK_GetSpeed()  returns 0x2EE0 (0001ms, 167831ms total)
T3200 20011:672 JLINK_ReadMemU32(0xE000E004, 0x0001 Items, ...) -- CPU_ReadMem(4 bytes @ 0xE000E004) - Data: 02 00 00 00  returns 1 (0002ms, 167833ms total)
T3200 20011:674 JLINK_ReadMemU32(0xE000E004, 0x0001 Items, ...) -- CPU_ReadMem(4 bytes @ 0xE000E004) - Data: 02 00 00 00  returns 1 (0002ms, 167835ms total)
T3200 20011:676 JLINK_WriteMemEx(0xE0001000, 0x001C Bytes, ..., Flags = 0x02000004) - Data: 01 00 00 00 00 00 00 00 00 00 00 00 00 00 00 00 ... -- CPU_WriteMem(28 bytes @ 0xE0001000)  returns 0x1C (0003ms, 167838ms total)
T3200 20011:680 JLINK_Halt()  returns 0x00 (0000ms, 167839ms total)
T3200 20011:680 JLINK_IsHalted()  returns TRUE (0000ms, 167839ms total)
T3200 20011:691 JLINK_WriteMem(0x20000000, 0x0198 Bytes, ...) - Data: 00 BE 0A E0 0D 78 2D 06 68 40 08 24 40 00 00 D3 ... -- CPU_WriteMem(408 bytes @ 0x20000000)  returns 0x198 (0004ms, 167843ms total)
T3200 20011:696 JLINK_WriteReg(R0, 0x08000000)  returns 0x00 (0000ms, 167844ms total)
T3200 20011:696 JLINK_WriteReg(R1, 0x017D7840)  returns 0x00 (0000ms, 167844ms total)
T3200 20011:696 JLINK_WriteReg(R2, 0x00000001)  returns 0x00 (0000ms, 167844ms total)
T3200 20011:697 JLINK_WriteReg(R3, 0x00000000)  returns 0x00 (0000ms, 167844ms total)
T3200 20011:697 JLINK_WriteReg(R4, 0x00000000)  returns 0x00 (0000ms, 167844ms total)
T3200 20011:697 JLINK_WriteReg(R5, 0x00000000)  returns 0x00 (0000ms, 167844ms total)
T3200 20011:697 JLINK_WriteReg(R6, 0x00000000)  returns 0x00 (0001ms, 167845ms total)
T3200 20011:698 JLINK_WriteReg(R7, 0x00000000)  returns 0x00 (0000ms, 167845ms total)
T3200 20011:698 JLINK_WriteReg(R8, 0x00000000)  returns 0x00 (0000ms, 167845ms total)
T3200 20011:698 JLINK_WriteReg(R9, 0x20000194)  returns 0x00 (0000ms, 167845ms total)
T3200 20011:698 JLINK_WriteReg(R10, 0x00000000)  returns 0x00 (0000ms, 167845ms total)
T3200 20011:699 JLINK_WriteReg(R11, 0x00000000)  returns 0x00 (0000ms, 167846ms total)
T3200 20011:699 JLINK_WriteReg(R12, 0x00000000)  returns 0x00 (0000ms, 167846ms total)
T3200 20011:699 JLINK_WriteReg(R13 (SP), 0x20001000)  returns 0x00 (0000ms, 167846ms total)
T3200 20011:699 JLINK_WriteReg(R14, 0x20000001)  returns 0x00 (0000ms, 167846ms total)
T3200 20011:699 JLINK_WriteReg(R15 (PC), 0x2000005E)  returns 0x00 (0001ms, 167847ms total)
T3200 20011:700 JLINK_WriteReg(XPSR, 0x01000000)  returns 0x00 (0000ms, 167847ms total)
T3200 20011:700 JLINK_WriteReg(MSP, 0x20001000)  returns 0x00 (0000ms, 167847ms total)
T3200 20011:700 JLINK_WriteReg(PSP, 0x20001000)  returns 0x00 (0000ms, 167847ms total)
T3200 20011:700 JLINK_WriteReg(CFBP, 0x00000000)  returns 0x00 (0001ms, 167848ms total)
T3200 20011:701 JLINK_SetBPEx(Addr = 0x20000000, Type = 0xFFFFFFF2) -- CPU_ReadMem(2 bytes @ 0x20000000)  returns 0x00000001 (0001ms, 167849ms total)
T3200 20011:702 JLINK_Go() -- CPU_WriteMem(2 bytes @ 0x20000000) -- CPU_ReadMem(4 bytes @ 0xE0001000) -- CPU_WriteMem(4 bytes @ 0xE0002008) -- CPU_WriteMem(4 bytes @ 0xE000200C) -- CPU_WriteMem(4 bytes @ 0xE0002010) -- CPU_WriteMem(4 bytes @ 0xE0002014) -- CPU_WriteMem(4 bytes @ 0xE0002018) -- CPU_WriteMem(4 bytes @ 0xE000201C) -- CPU_WriteMem(4 bytes @ 0xE0001004) (0008ms, 167857ms total)
T3200 20011:710 JLINK_IsHalted() -- CPU_ReadMem(2 bytes @ 0x20000000)  returns TRUE (0005ms, 167862ms total)
T3200 20011:715 JLINK_ReadReg(R15 (PC))  returns 0x20000000 (0000ms, 167857ms total)
T3200 20011:715 JLINK_ClrBPEx(BPHandle = 0x00000001)  returns 0x00 (0001ms, 167858ms total)
T3200 20011:716 JLINK_ReadReg(R0)  returns 0x00000000 (0000ms, 167858ms total)
T3200 20011:717 JLINK_WriteReg(R0, 0x08000000)  returns 0x00 (0000ms, 167858ms total)
T3200 20011:717 JLINK_WriteReg(R1, 0x00004000)  returns 0x00 (0000ms, 167858ms total)
T3200 20011:717 JLINK_WriteReg(R2, 0x000000FF)  returns 0x00 (0000ms, 167858ms total)
T3200 20011:718 JLINK_WriteReg(R3, 0x00000000)  returns 0x00 (0000ms, 167859ms total)
T3200 20011:718 JLINK_WriteReg(R4, 0x00000000)  returns 0x00 (0000ms, 167859ms total)
T3200 20011:718 JLINK_WriteReg(R5, 0x00000000)  returns 0x00 (0000ms, 167859ms total)
T3200 20011:718 JLINK_WriteReg(R6, 0x00000000)  returns 0x00 (0001ms, 167860ms total)
T3200 20011:719 JLINK_WriteReg(R7, 0x00000000)  returns 0x00 (0000ms, 167860ms total)
T3200 20011:719 JLINK_WriteReg(R8, 0x00000000)  returns 0x00 (0000ms, 167860ms total)
T3200 20011:719 JLINK_WriteReg(R9, 0x20000194)  returns 0x00 (0000ms, 167860ms total)
T3200 20011:719 JLINK_WriteReg(R10, 0x00000000)  returns 0x00 (0000ms, 167860ms total)
T3200 20011:720 JLINK_WriteReg(R11, 0x00000000)  returns 0x00 (0000ms, 167860ms total)
T3200 20011:720 JLINK_WriteReg(R12, 0x00000000)  returns 0x00 (0000ms, 167860ms total)
T3200 20011:720 JLINK_WriteReg(R13 (SP), 0x20001000)  returns 0x00 (0000ms, 167860ms total)
T3200 20011:720 JLINK_WriteReg(R14, 0x20000001)  returns 0x00 (0001ms, 167861ms total)
T3200 20011:721 JLINK_WriteReg(R15 (PC), 0x20000020)  returns 0x00 (0000ms, 167861ms total)
T3200 20011:721 JLINK_WriteReg(XPSR, 0x01000000)  returns 0x00 (0000ms, 167861ms total)
T3200 20011:721 JLINK_WriteReg(MSP, 0x20001000)  returns 0x00 (0001ms, 167862ms total)
T3200 20011:722 JLINK_WriteReg(PSP, 0x20001000)  returns 0x00 (0000ms, 167862ms total)
T3200 20011:722 JLINK_WriteReg(CFBP, 0x00000000)  returns 0x00 (0000ms, 167862ms total)
T3200 20011:722 JLINK_SetBPEx(Addr = 0x20000000, Type = 0xFFFFFFF2)  returns 0x00000002 (0001ms, 167863ms total)
T3200 20011:723 JLINK_Go() -- CPU_ReadMem(4 bytes @ 0xE0001000) (0005ms, 167868ms total)
T3200 20011:728 JLINK_IsHalted() -- CPU_ReadMem(2 bytes @ 0x20000000)  returns TRUE (0004ms, 167872ms total)
T3200 20011:732 JLINK_ReadReg(R15 (PC))  returns 0x20000000 (0000ms, 167868ms total)
T3200 20011:732 JLINK_ClrBPEx(BPHandle = 0x00000002)  returns 0x00 (0000ms, 167868ms total)
T3200 20011:732 JLINK_ReadReg(R0)  returns 0x00000001 (0001ms, 167869ms total)
T3200 20011:733 JLINK_WriteReg(R0, 0x08000000)  returns 0x00 (0000ms, 167869ms total)
T3200 20011:733 JLINK_WriteReg(R1, 0x00004000)  returns 0x00 (0000ms, 167869ms total)
T3200 20011:733 JLINK_WriteReg(R2, 0x000000FF)  returns 0x00 (0000ms, 167869ms total)
T3200 20011:733 JLINK_WriteReg(R3, 0x00000000)  returns 0x00 (0001ms, 167870ms total)
T3200 20011:734 JLINK_WriteReg(R4, 0x00000000)  returns 0x00 (0000ms, 167870ms total)
T3200 20011:734 JLINK_WriteReg(R5, 0x00000000)  returns 0x00 (0000ms, 167870ms total)
T3200 20011:734 JLINK_WriteReg(R6, 0x00000000)  returns 0x00 (0000ms, 167870ms total)
T3200 20011:734 JLINK_WriteReg(R7, 0x00000000)  returns 0x00 (0001ms, 167871ms total)
T3200 20011:735 JLINK_WriteReg(R8, 0x00000000)  returns 0x00 (0000ms, 167871ms total)
T3200 20011:735 JLINK_WriteReg(R9, 0x20000194)  returns 0x00 (0000ms, 167871ms total)
T3200 20011:735 JLINK_WriteReg(R10, 0x00000000)  returns 0x00 (0000ms, 167871ms total)
T3200 20011:735 JLINK_WriteReg(R11, 0x00000000)  returns 0x00 (0001ms, 167872ms total)
T3200 20011:736 JLINK_WriteReg(R12, 0x00000000)  returns 0x00 (0000ms, 167872ms total)
T3200 20011:736 JLINK_WriteReg(R13 (SP), 0x20001000)  returns 0x00 (0000ms, 167872ms total)
T3200 20011:736 JLINK_WriteReg(R14, 0x20000001)  returns 0x00 (0000ms, 167872ms total)
T3200 20011:736 JLINK_WriteReg(R15 (PC), 0x200000D4)  returns 0x00 (0001ms, 167873ms total)
T3200 20011:737 JLINK_WriteReg(XPSR, 0x01000000)  returns 0x00 (0000ms, 167873ms total)
T3200 20011:737 JLINK_WriteReg(MSP, 0x20001000)  returns 0x00 (0000ms, 167873ms total)
T3200 20011:737 JLINK_WriteReg(PSP, 0x20001000)  returns 0x00 (0001ms, 167874ms total)
T3200 20011:738 JLINK_WriteReg(CFBP, 0x00000000)  returns 0x00 (0000ms, 167874ms total)
T3200 20011:738 JLINK_SetBPEx(Addr = 0x20000000, Type = 0xFFFFFFF2)  returns 0x00000003 (0000ms, 167874ms total)
T3200 20011:738 JLINK_Go() -- CPU_ReadMem(4 bytes @ 0xE0001000) (0005ms, 167879ms total)
T3200 20011:744 JLINK_IsHalted()  returns FALSE (0001ms, 167880ms total)
T3200 20011:988 JLINK_IsHalted()  returns FALSE (0001ms, 167880ms total)
T3200 20012:008 JLINK_IsHalted()  returns FALSE (0001ms, 167880ms total)
T3200 20012:011 JLINK_IsHalted()  returns FALSE (0001ms, 167880ms total)
T3200 20012:014 JLINK_IsHalted()  returns FALSE (0001ms, 167880ms total)
T3200 20012:025 JLINK_IsHalted()  returns FALSE (0001ms, 167880ms total)
T3200 20012:028 JLINK_IsHalted()  returns FALSE (0001ms, 167880ms total)
T3200 20012:040 JLINK_IsHalted()  returns FALSE (0001ms, 167880ms total)
T3200 20012:043 JLINK_IsHalted()  returns FALSE (0001ms, 167880ms total)
T3200 20012:046 JLINK_IsHalted()  returns FALSE (0001ms, 167880ms total)
T3200 20012:057 JLINK_IsHalted()  returns FALSE (0001ms, 167880ms total)
T3200 20012:060 JLINK_IsHalted()  returns FALSE (0001ms, 167880ms total)
T3200 20012:063 JLINK_IsHalted()  returns FALSE (0001ms, 167880ms total)
T3200 20012:073 JLINK_IsHalted()  returns FALSE (0001ms, 167880ms total)
T3200 20012:076 JLINK_IsHalted()  returns FALSE (0001ms, 167880ms total)
T3200 20012:079 JLINK_IsHalted()  returns FALSE (0001ms, 167880ms total)
T3200 20012:091 JLINK_IsHalted()  returns FALSE (0001ms, 167880ms total)
T3200 20012:109 JLINK_IsHalted() -- CPU_ReadMem(2 bytes @ 0x20000000)  returns TRUE (0004ms, 167883ms total)
T3200 20012:113 JLINK_ReadReg(R15 (PC))  returns 0x20000000 (0000ms, 167879ms total)
T3200 20012:113 JLINK_ClrBPEx(BPHandle = 0x00000003)  returns 0x00 (0001ms, 167880ms total)
T3200 20012:114 JLINK_ReadReg(R0)  returns 0x00000000 (0000ms, 167880ms total)
T3200 20012:116 JLINK_WriteReg(R0, 0x08004000)  returns 0x00 (0000ms, 167880ms total)
T3200 20012:116 JLINK_WriteReg(R1, 0x00004000)  returns 0x00 (0000ms, 167880ms total)
T3200 20012:116 JLINK_WriteReg(R2, 0x000000FF)  returns 0x00 (0001ms, 167881ms total)
T3200 20012:117 JLINK_WriteReg(R3, 0x00000000)  returns 0x00 (0000ms, 167881ms total)
T3200 20012:117 JLINK_WriteReg(R4, 0x00000000)  returns 0x00 (0000ms, 167881ms total)
T3200 20012:117 JLINK_WriteReg(R5, 0x00000000)  returns 0x00 (0000ms, 167881ms total)
T3200 20012:117 JLINK_WriteReg(R6, 0x00000000)  returns 0x00 (0001ms, 167882ms total)
T3200 20012:118 JLINK_WriteReg(R7, 0x00000000)  returns 0x00 (0000ms, 167882ms total)
T3200 20012:118 JLINK_WriteReg(R8, 0x00000000)  returns 0x00 (0000ms, 167882ms total)
T3200 20012:118 JLINK_WriteReg(R9, 0x20000194)  returns 0x00 (0000ms, 167882ms total)
T3200 20012:118 JLINK_WriteReg(R10, 0x00000000)  returns 0x00 (0001ms, 167883ms total)
T3200 20012:119 JLINK_WriteReg(R11, 0x00000000)  returns 0x00 (0000ms, 167883ms total)
T3200 20012:119 JLINK_WriteReg(R12, 0x00000000)  returns 0x00 (0000ms, 167883ms total)
T3200 20012:119 JLINK_WriteReg(R13 (SP), 0x20001000)  returns 0x00 (0000ms, 167883ms total)
T3200 20012:119 JLINK_WriteReg(R14, 0x20000001)  returns 0x00 (0000ms, 167883ms total)
T3200 20012:120 JLINK_WriteReg(R15 (PC), 0x20000020)  returns 0x00 (0000ms, 167884ms total)
T3200 20012:120 JLINK_WriteReg(XPSR, 0x01000000)  returns 0x00 (0000ms, 167884ms total)
T3200 20012:120 JLINK_WriteReg(MSP, 0x20001000)  returns 0x00 (0000ms, 167884ms total)
T3200 20012:120 JLINK_WriteReg(PSP, 0x20001000)  returns 0x00 (0000ms, 167884ms total)
T3200 20012:120 JLINK_WriteReg(CFBP, 0x00000000)  returns 0x00 (0001ms, 167885ms total)
T3200 20012:121 JLINK_SetBPEx(Addr = 0x20000000, Type = 0xFFFFFFF2)  returns 0x00000004 (0000ms, 167885ms total)
T3200 20012:121 JLINK_Go() -- CPU_ReadMem(4 bytes @ 0xE0001000) (0004ms, 167889ms total)
T3200 20012:125 JLINK_IsHalted() -- CPU_ReadMem(2 bytes @ 0x20000000)  returns TRUE (0005ms, 167894ms total)
T3200 20012:130 JLINK_ReadReg(R15 (PC))  returns 0x20000000 (0000ms, 167889ms total)
T3200 20012:130 JLINK_ClrBPEx(BPHandle = 0x00000004)  returns 0x00 (0001ms, 167890ms total)
T3200 20012:131 JLINK_ReadReg(R0)  returns 0x00000001 (0000ms, 167890ms total)
T3200 20012:131 JLINK_WriteReg(R0, 0x08004000)  returns 0x00 (0000ms, 167890ms total)
T3200 20012:131 JLINK_WriteReg(R1, 0x00004000)  returns 0x00 (0000ms, 167890ms total)
T3200 20012:131 JLINK_WriteReg(R2, 0x000000FF)  returns 0x00 (0001ms, 167891ms total)
T3200 20012:132 JLINK_WriteReg(R3, 0x00000000)  returns 0x00 (0000ms, 167891ms total)
T3200 20012:132 JLINK_WriteReg(R4, 0x00000000)  returns 0x00 (0000ms, 167891ms total)
T3200 20012:132 JLINK_WriteReg(R5, 0x00000000)  returns 0x00 (0000ms, 167891ms total)
T3200 20012:132 JLINK_WriteReg(R6, 0x00000000)  returns 0x00 (0000ms, 167891ms total)
T3200 20012:133 JLINK_WriteReg(R7, 0x00000000)  returns 0x00 (0000ms, 167891ms total)
T3200 20012:133 JLINK_WriteReg(R8, 0x00000000)  returns 0x00 (0000ms, 167891ms total)
T3200 20012:135 JLINK_WriteReg(R9, 0x20000194)  returns 0x00 (0000ms, 167891ms total)
T3200 20012:135 JLINK_WriteReg(R10, 0x00000000)  returns 0x00 (0000ms, 167891ms total)
T3200 20012:135 JLINK_WriteReg(R11, 0x00000000)  returns 0x00 (0001ms, 167892ms total)
T3200 20012:136 JLINK_WriteReg(R12, 0x00000000)  returns 0x00 (0000ms, 167892ms total)
T3200 20012:136 JLINK_WriteReg(R13 (SP), 0x20001000)  returns 0x00 (0000ms, 167892ms total)
T3200 20012:136 JLINK_WriteReg(R14, 0x20000001)  returns 0x00 (0000ms, 167892ms total)
T3200 20012:136 JLINK_WriteReg(R15 (PC), 0x200000D4)  returns 0x00 (0001ms, 167893ms total)
T3200 20012:137 JLINK_WriteReg(XPSR, 0x01000000)  returns 0x00 (0000ms, 167893ms total)
T3200 20012:137 JLINK_WriteReg(MSP, 0x20001000)  returns 0x00 (0000ms, 167893ms total)
T3200 20012:137 JLINK_WriteReg(PSP, 0x20001000)  returns 0x00 (0000ms, 167893ms total)
T3200 20012:137 JLINK_WriteReg(CFBP, 0x00000000)  returns 0x00 (0001ms, 167894ms total)
T3200 20012:138 JLINK_SetBPEx(Addr = 0x20000000, Type = 0xFFFFFFF2)  returns 0x00000005 (0000ms, 167894ms total)
T3200 20012:138 JLINK_Go() -- CPU_ReadMem(4 bytes @ 0xE0001000) (0005ms, 167899ms total)
T3200 20012:143 JLINK_IsHalted()  returns FALSE (0001ms, 167900ms total)
T3200 20012:166 JLINK_IsHalted()  returns FALSE (0001ms, 167900ms total)
T3200 20012:169 JLINK_IsHalted()  returns FALSE (0001ms, 167900ms total)
T3200 20012:173 JLINK_IsHalted()  returns FALSE (0001ms, 167900ms total)
T3200 20012:196 JLINK_IsHalted()  returns FALSE (0001ms, 167900ms total)
T3200 20012:199 JLINK_IsHalted()  returns FALSE (0002ms, 167901ms total)
T3200 20012:203 JLINK_IsHalted()  returns FALSE (0001ms, 167900ms total)
T3200 20012:206 JLINK_IsHalted()  returns FALSE (0001ms, 167900ms total)
T3200 20012:242 JLINK_IsHalted()  returns FALSE (0001ms, 167900ms total)
T3200 20012:245 JLINK_IsHalted()  returns FALSE (0001ms, 167900ms total)
T3200 20012:248 JLINK_IsHalted()  returns FALSE (0001ms, 167900ms total)
T3200 20012:275 JLINK_IsHalted()  returns FALSE (0001ms, 167900ms total)
T3200 20012:278 JLINK_IsHalted()  returns FALSE (0001ms, 167900ms total)
T3200 20012:281 JLINK_IsHalted()  returns FALSE (0001ms, 167900ms total)
T3200 20012:293 JLINK_IsHalted()  returns FALSE (0001ms, 167900ms total)
T3200 20012:296 JLINK_IsHalted()  returns FALSE (0001ms, 167900ms total)
T3200 20012:299 JLINK_IsHalted()  returns FALSE (0001ms, 167900ms total)
T3200 20012:311 JLINK_IsHalted()  returns FALSE (0001ms, 167900ms total)
T3200 20012:340 JLINK_IsHalted()  returns FALSE (0001ms, 167900ms total)
T3200 20012:352 JLINK_IsHalted()  returns FALSE (0001ms, 167900ms total)
T3200 20012:355 JLINK_IsHalted()  returns FALSE (0002ms, 167901ms total)
T3200 20012:359 JLINK_IsHalted()  returns FALSE (0000ms, 167899ms total)
T3200 20012:362 JLINK_IsHalted()  returns FALSE (0000ms, 167899ms total)
T3200 20012:373 JLINK_IsHalted()  returns FALSE (0000ms, 167899ms total)
T3200 20012:376 JLINK_IsHalted()  returns FALSE (0000ms, 167899ms total)
T3200 20012:379 JLINK_IsHalted()  returns FALSE (0000ms, 167899ms total)
T3200 20012:382 JLINK_IsHalted()  returns FALSE (0000ms, 167899ms total)
T3200 20012:398 JLINK_IsHalted()  returns FALSE (0000ms, 167899ms total)
T3200 20012:401 JLINK_IsHalted()  returns FALSE (0000ms, 167899ms total)
T3200 20012:404 JLINK_IsHalted()  returns FALSE (0000ms, 167899ms total)
T3200 20012:415 JLINK_IsHalted()  returns FALSE (0001ms, 167900ms total)
T3200 20012:419 JLINK_IsHalted()  returns FALSE (0000ms, 167899ms total)
T3200 20012:446 JLINK_IsHalted()  returns FALSE (0001ms, 167900ms total)
T3200 20012:449 JLINK_IsHalted()  returns FALSE (0001ms, 167900ms total)
T3200 20012:452 JLINK_IsHalted()  returns FALSE (0001ms, 167900ms total)
T3200 20012:464 JLINK_IsHalted()  returns FALSE (0001ms, 167900ms total)
T3200 20012:467 JLINK_IsHalted()  returns FALSE (0001ms, 167900ms total)
T3200 20012:470 JLINK_IsHalted()  returns FALSE (0001ms, 167900ms total)
T3200 20012:483 JLINK_IsHalted()  returns FALSE (0001ms, 167900ms total)
T3200 20012:486 JLINK_IsHalted()  returns FALSE (0001ms, 167900ms total)
T3200 20012:500 JLINK_IsHalted()  returns FALSE (0001ms, 167900ms total)
T3200 20012:503 JLINK_IsHalted()  returns FALSE (0001ms, 167900ms total)
T3200 20012:506 JLINK_IsHalted()  returns FALSE (0001ms, 167900ms total)
T3200 20012:527 JLINK_IsHalted() -- CPU_ReadMem(2 bytes @ 0x20000000)  returns TRUE (0004ms, 167903ms total)
T3200 20012:531 JLINK_ReadReg(R15 (PC))  returns 0x20000000 (0001ms, 167900ms total)
T3200 20012:532 JLINK_ClrBPEx(BPHandle = 0x00000005)  returns 0x00 (0000ms, 167900ms total)
T3200 20012:532 JLINK_ReadReg(R0)  returns 0x00000000 (0000ms, 167900ms total)
T3200 20012:534 JLINK_WriteReg(R0, 0x00000001)  returns 0x00 (0000ms, 167900ms total)
T3200 20012:534 JLINK_WriteReg(R1, 0x00004000)  returns 0x00 (0000ms, 167900ms total)
T3200 20012:534 JLINK_WriteReg(R2, 0x000000FF)  returns 0x00 (0001ms, 167901ms total)
T3200 20012:535 JLINK_WriteReg(R3, 0x00000000)  returns 0x00 (0000ms, 167901ms total)
T3200 20012:535 JLINK_WriteReg(R4, 0x00000000)  returns 0x00 (0000ms, 167901ms total)
T3200 20012:535 JLINK_WriteReg(R5, 0x00000000)  returns 0x00 (0000ms, 167901ms total)
T3200 20012:535 JLINK_WriteReg(R6, 0x00000000)  returns 0x00 (0001ms, 167902ms total)
T3200 20012:536 JLINK_WriteReg(R7, 0x00000000)  returns 0x00 (0000ms, 167902ms total)
T3200 20012:536 JLINK_WriteReg(R8, 0x00000000)  returns 0x00 (0000ms, 167902ms total)
T3200 20012:536 JLINK_WriteReg(R9, 0x20000194)  returns 0x00 (0000ms, 167902ms total)
T3200 20012:536 JLINK_WriteReg(R10, 0x00000000)  returns 0x00 (0001ms, 167903ms total)
T3200 20012:537 JLINK_WriteReg(R11, 0x00000000)  returns 0x00 (0000ms, 167903ms total)
T3200 20012:537 JLINK_WriteReg(R12, 0x00000000)  returns 0x00 (0000ms, 167903ms total)
T3200 20012:537 JLINK_WriteReg(R13 (SP), 0x20001000)  returns 0x00 (0000ms, 167903ms total)
T3200 20012:537 JLINK_WriteReg(R14, 0x20000001)  returns 0x00 (0001ms, 167904ms total)
T3200 20012:538 JLINK_WriteReg(R15 (PC), 0x2000008C)  returns 0x00 (0000ms, 167904ms total)
T3200 20012:538 JLINK_WriteReg(XPSR, 0x01000000)  returns 0x00 (0000ms, 167904ms total)
T3200 20012:538 JLINK_WriteReg(MSP, 0x20001000)  returns 0x00 (0000ms, 167904ms total)
T3200 20012:538 JLINK_WriteReg(PSP, 0x20001000)  returns 0x00 (0001ms, 167905ms total)
T3200 20012:539 JLINK_WriteReg(CFBP, 0x00000000)  returns 0x00 (0000ms, 167905ms total)
T3200 20012:539 JLINK_SetBPEx(Addr = 0x20000000, Type = 0xFFFFFFF2)  returns 0x00000006 (0000ms, 167905ms total)
T3200 20012:539 JLINK_Go() -- CPU_ReadMem(4 bytes @ 0xE0001000) (0004ms, 167909ms total)
T3200 20012:543 JLINK_IsHalted() -- CPU_ReadMem(2 bytes @ 0x20000000)  returns TRUE (0004ms, 167913ms total)
T3200 20012:547 JLINK_ReadReg(R15 (PC))  returns 0x20000000 (0000ms, 167909ms total)
T3200 20012:547 JLINK_ClrBPEx(BPHandle = 0x00000006)  returns 0x00 (0001ms, 167910ms total)
T3200 20012:548 JLINK_ReadReg(R0)  returns 0x00000000 (0000ms, 167910ms total)
T3200 20012:648 JLINK_WriteMem(0x20000000, 0x0198 Bytes, ...) - Data: 00 BE 0A E0 0D 78 2D 06 68 40 08 24 40 00 00 D3 ... -- CPU_WriteMem(408 bytes @ 0x20000000)  returns 0x198 (0003ms, 167913ms total)
T3200 20012:651 JLINK_WriteReg(R0, 0x08000000)  returns 0x00 (0000ms, 167913ms total)
T3200 20012:651 JLINK_WriteReg(R1, 0x017D7840)  returns 0x00 (0001ms, 167914ms total)
T3200 20012:652 JLINK_WriteReg(R2, 0x00000002)  returns 0x00 (0000ms, 167914ms total)
T3200 20012:652 JLINK_WriteReg(R3, 0x00000000)  returns 0x00 (0000ms, 167914ms total)
T3200 20012:652 JLINK_WriteReg(R4, 0x00000000)  returns 0x00 (0000ms, 167914ms total)
T3200 20012:652 JLINK_WriteReg(R5, 0x00000000)  returns 0x00 (0001ms, 167915ms total)
T3200 20012:653 JLINK_WriteReg(R6, 0x00000000)  returns 0x00 (0000ms, 167915ms total)
T3200 20012:653 JLINK_WriteReg(R7, 0x00000000)  returns 0x00 (0000ms, 167915ms total)
T3200 20012:653 JLINK_WriteReg(R8, 0x00000000)  returns 0x00 (0001ms, 167916ms total)
T3200 20012:654 JLINK_WriteReg(R9, 0x20000194)  returns 0x00 (0000ms, 167916ms total)
T3200 20012:654 JLINK_WriteReg(R10, 0x00000000)  returns 0x00 (0000ms, 167916ms total)
T3200 20012:654 JLINK_WriteReg(R11, 0x00000000)  returns 0x00 (0001ms, 167917ms total)
T3200 20012:655 JLINK_WriteReg(R12, 0x00000000)  returns 0x00 (0000ms, 167917ms total)
T3200 20012:655 JLINK_WriteReg(R13 (SP), 0x20001000)  returns 0x00 (0000ms, 167917ms total)
T3200 20012:655 JLINK_WriteReg(R14, 0x20000001)  returns 0x00 (0000ms, 167917ms total)
T3200 20012:655 JLINK_WriteReg(R15 (PC), 0x2000005E)  returns 0x00 (0001ms, 167918ms total)
T3200 20012:656 JLINK_WriteReg(XPSR, 0x01000000)  returns 0x00 (0000ms, 167918ms total)
T3200 20012:656 JLINK_WriteReg(MSP, 0x20001000)  returns 0x00 (0000ms, 167918ms total)
T3200 20012:656 JLINK_WriteReg(PSP, 0x20001000)  returns 0x00 (0001ms, 167919ms total)
T3200 20012:657 JLINK_WriteReg(CFBP, 0x00000000)  returns 0x00 (0000ms, 167919ms total)
T3200 20012:657 JLINK_SetBPEx(Addr = 0x20000000, Type = 0xFFFFFFF2) -- CPU_ReadMem(2 bytes @ 0x20000000)  returns 0x00000007 (0001ms, 167920ms total)
T3200 20012:658 JLINK_Go() -- CPU_WriteMem(2 bytes @ 0x20000000) -- CPU_ReadMem(4 bytes @ 0xE0001000) (0006ms, 167926ms total)
T3200 20012:664 JLINK_IsHalted() -- CPU_ReadMem(2 bytes @ 0x20000000)  returns TRUE (0005ms, 167931ms total)
T3200 20012:669 JLINK_ReadReg(R15 (PC))  returns 0x20000000 (0000ms, 167926ms total)
T3200 20012:669 JLINK_ClrBPEx(BPHandle = 0x00000007)  returns 0x00 (0001ms, 167927ms total)
T3200 20012:670 JLINK_ReadReg(R0)  returns 0x00000000 (0000ms, 167927ms total)
T3200 20012:671 JLINK_WriteMem(0x20000198, 0x0268 Bytes, ...) - Data: 98 3E 00 20 5D 03 00 08 B3 1C 00 08 7D 1B 00 08 ... -- CPU_WriteMem(616 bytes @ 0x20000198)  returns 0x268 (0003ms, 167930ms total)
T3200 20012:674 JLINK_WriteMem(0x20000400, 0x0198 Bytes, ...) - Data: C1 F8 2C C0 05 F0 18 FE 0C BC 1A 60 D2 F8 2C C0 ... -- CPU_WriteMem(408 bytes @ 0x20000400)  returns 0x198 (0003ms, 167933ms total)
T3200 20012:677 JLINK_WriteReg(R0, 0x08000000)  returns 0x00 (0000ms, 167933ms total)
T3200 20012:677 JLINK_WriteReg(R1, 0x00000400)  returns 0x00 (0000ms, 167933ms total)
T3200 20012:677 JLINK_WriteReg(R2, 0x20000198)  returns 0x00 (0001ms, 167934ms total)
T3200 20012:678 JLINK_WriteReg(R3, 0x00000000)  returns 0x00 (0000ms, 167934ms total)
T3200 20012:678 JLINK_WriteReg(R4, 0x00000000)  returns 0x00 (0000ms, 167934ms total)
T3200 20012:678 JLINK_WriteReg(R5, 0x00000000)  returns 0x00 (0000ms, 167934ms total)
T3200 20012:678 JLINK_WriteReg(R6, 0x00000000)  returns 0x00 (0001ms, 167935ms total)
T3200 20012:679 JLINK_WriteReg(R7, 0x00000000)  returns 0x00 (0000ms, 167935ms total)
T3200 20012:679 JLINK_WriteReg(R8, 0x00000000)  returns 0x00 (0000ms, 167935ms total)
T3200 20012:679 JLINK_WriteReg(R9, 0x20000194)  returns 0x00 (0000ms, 167935ms total)
T3200 20012:679 JLINK_WriteReg(R10, 0x00000000)  returns 0x00 (0001ms, 167936ms total)
T3200 20012:680 JLINK_WriteReg(R11, 0x00000000)  returns 0x00 (0000ms, 167936ms total)
T3200 20012:680 JLINK_WriteReg(R12, 0x00000000)  returns 0x00 (0000ms, 167936ms total)
T3200 20012:680 JLINK_WriteReg(R13 (SP), 0x20001000)  returns 0x00 (0001ms, 167937ms total)
T3200 20012:681 JLINK_WriteReg(R14, 0x20000001)  returns 0x00 (0000ms, 167937ms total)
T3200 20012:681 JLINK_WriteReg(R15 (PC), 0x20000120)  returns 0x00 (0000ms, 167937ms total)
T3200 20012:681 JLINK_WriteReg(XPSR, 0x01000000)  returns 0x00 (0000ms, 167937ms total)
T3200 20012:681 JLINK_WriteReg(MSP, 0x20001000)  returns 0x00 (0001ms, 167938ms total)
T3200 20012:682 JLINK_WriteReg(PSP, 0x20001000)  returns 0x00 (0000ms, 167938ms total)
T3200 20012:682 JLINK_WriteReg(CFBP, 0x00000000)  returns 0x00 (0000ms, 167938ms total)
T3200 20012:682 JLINK_SetBPEx(Addr = 0x20000000, Type = 0xFFFFFFF2)  returns 0x00000008 (0000ms, 167938ms total)
T3200 20012:682 JLINK_Go() -- CPU_ReadMem(4 bytes @ 0xE0001000) (0005ms, 167943ms total)
T3200 20012:687 JLINK_IsHalted()  returns FALSE (0001ms, 167944ms total)
T3200 20012:720 JLINK_IsHalted() -- CPU_ReadMem(2 bytes @ 0x20000000)  returns TRUE (0004ms, 167947ms total)
T3200 20012:724 JLINK_ReadReg(R15 (PC))  returns 0x20000000 (0000ms, 167943ms total)
T3200 20012:724 JLINK_ClrBPEx(BPHandle = 0x00000008)  returns 0x00 (0000ms, 167943ms total)
T3200 20012:724 JLINK_ReadReg(R0)  returns 0x00000000 (0001ms, 167944ms total)
T3200 20012:727 JLINK_WriteMem(0x20000198, 0x0268 Bytes, ...) - Data: 58 46 04 B0 BD E8 F0 9F 44 F4 80 64 A9 69 7F 1C ... -- CPU_WriteMem(616 bytes @ 0x20000198)  returns 0x268 (0003ms, 167947ms total)
T3200 20012:730 JLINK_WriteMem(0x20000400, 0x0198 Bytes, ...) - Data: 23 F0 00 43 50 EA 01 04 5E D0 52 EA 03 04 5B D0 ... -- CPU_WriteMem(408 bytes @ 0x20000400)  returns 0x198 (0003ms, 167950ms total)
T3200 20012:733 JLINK_WriteReg(R0, 0x08000400)  returns 0x00 (0000ms, 167950ms total)
T3200 20012:733 JLINK_WriteReg(R1, 0x00000400)  returns 0x00 (0001ms, 167951ms total)
T3200 20012:734 JLINK_WriteReg(R2, 0x20000198)  returns 0x00 (0000ms, 167951ms total)
T3200 20012:734 JLINK_WriteReg(R3, 0x00000000)  returns 0x00 (0000ms, 167951ms total)
T3200 20012:734 JLINK_WriteReg(R4, 0x00000000)  returns 0x00 (0000ms, 167951ms total)
T3200 20012:734 JLINK_WriteReg(R5, 0x00000000)  returns 0x00 (0001ms, 167952ms total)
T3200 20012:735 JLINK_WriteReg(R6, 0x00000000)  returns 0x00 (0000ms, 167952ms total)
T3200 20012:735 JLINK_WriteReg(R7, 0x00000000)  returns 0x00 (0000ms, 167952ms total)
T3200 20012:735 JLINK_WriteReg(R8, 0x00000000)  returns 0x00 (0000ms, 167952ms total)
T3200 20012:735 JLINK_WriteReg(R9, 0x20000194)  returns 0x00 (0001ms, 167953ms total)
T3200 20012:736 JLINK_WriteReg(R10, 0x00000000)  returns 0x00 (0000ms, 167953ms total)
T3200 20012:736 JLINK_WriteReg(R11, 0x00000000)  returns 0x00 (0000ms, 167953ms total)
T3200 20012:736 JLINK_WriteReg(R12, 0x00000000)  returns 0x00 (0000ms, 167953ms total)
T3200 20012:737 JLINK_WriteReg(R13 (SP), 0x20001000)  returns 0x00 (0000ms, 167954ms total)
T3200 20012:737 JLINK_WriteReg(R14, 0x20000001)  returns 0x00 (0000ms, 167954ms total)
T3200 20012:737 JLINK_WriteReg(R15 (PC), 0x20000120)  returns 0x00 (0000ms, 167954ms total)
T3200 20012:737 JLINK_WriteReg(XPSR, 0x01000000)  returns 0x00 (0001ms, 167955ms total)
T3200 20012:738 JLINK_WriteReg(MSP, 0x20001000)  returns 0x00 (0000ms, 167955ms total)
T3200 20012:738 JLINK_WriteReg(PSP, 0x20001000)  returns 0x00 (0000ms, 167955ms total)
T3200 20012:738 JLINK_WriteReg(CFBP, 0x00000000)  returns 0x00 (0000ms, 167955ms total)
T3200 20012:738 JLINK_SetBPEx(Addr = 0x20000000, Type = 0xFFFFFFF2)  returns 0x00000009 (0001ms, 167956ms total)
T3200 20012:739 JLINK_Go() -- CPU_ReadMem(4 bytes @ 0xE0001000) (0004ms, 167960ms total)
T3200 20012:743 JLINK_IsHalted()  returns FALSE (0002ms, 167962ms total)
T3200 20012:791 JLINK_IsHalted() -- CPU_ReadMem(2 bytes @ 0x20000000)  returns TRUE (0004ms, 167964ms total)
T3200 20012:795 JLINK_ReadReg(R15 (PC))  returns 0x20000000 (0000ms, 167960ms total)
T3200 20012:795 JLINK_ClrBPEx(BPHandle = 0x00000009)  returns 0x00 (0001ms, 167961ms total)
T3200 20012:796 JLINK_ReadReg(R0)  returns 0x00000000 (0000ms, 167961ms total)
T3200 20012:798 JLINK_WriteMem(0x20000198, 0x0268 Bytes, ...) - Data: 4C EB 08 51 10 EB 0A 00 41 EB 0B 01 BD E8 F0 4D ... -- CPU_WriteMem(616 bytes @ 0x20000198)  returns 0x268 (0004ms, 167965ms total)
T3200 20012:802 JLINK_WriteMem(0x20000400, 0x0198 Bytes, ...) - Data: 00 01 92 18 5B 41 1A 43 01 D1 20 F0 01 00 10 BD ... -- CPU_WriteMem(408 bytes @ 0x20000400)  returns 0x198 (0003ms, 167968ms total)
T3200 20012:805 JLINK_WriteReg(R0, 0x08000800)  returns 0x00 (0000ms, 167968ms total)
T3200 20012:805 JLINK_WriteReg(R1, 0x00000400)  returns 0x00 (0000ms, 167968ms total)
T3200 20012:805 JLINK_WriteReg(R2, 0x20000198)  returns 0x00 (0001ms, 167969ms total)
T3200 20012:806 JLINK_WriteReg(R3, 0x00000000)  returns 0x00 (0000ms, 167969ms total)
T3200 20012:806 JLINK_WriteReg(R4, 0x00000000)  returns 0x00 (0000ms, 167969ms total)
T3200 20012:806 JLINK_WriteReg(R5, 0x00000000)  returns 0x00 (0000ms, 167969ms total)
T3200 20012:806 JLINK_WriteReg(R6, 0x00000000)  returns 0x00 (0001ms, 167970ms total)
T3200 20012:807 JLINK_WriteReg(R7, 0x00000000)  returns 0x00 (0000ms, 167970ms total)
T3200 20012:807 JLINK_WriteReg(R8, 0x00000000)  returns 0x00 (0000ms, 167970ms total)
T3200 20012:807 JLINK_WriteReg(R9, 0x20000194)  returns 0x00 (0000ms, 167970ms total)
T3200 20012:807 JLINK_WriteReg(R10, 0x00000000)  returns 0x00 (0001ms, 167971ms total)
T3200 20012:808 JLINK_WriteReg(R11, 0x00000000)  returns 0x00 (0000ms, 167971ms total)
T3200 20012:808 JLINK_WriteReg(R12, 0x00000000)  returns 0x00 (0000ms, 167971ms total)
T3200 20012:808 JLINK_WriteReg(R13 (SP), 0x20001000)  returns 0x00 (0001ms, 167972ms total)
T3200 20012:809 JLINK_WriteReg(R14, 0x20000001)  returns 0x00 (0000ms, 167972ms total)
T3200 20012:809 JLINK_WriteReg(R15 (PC), 0x20000120)  returns 0x00 (0000ms, 167972ms total)
T3200 20012:809 JLINK_WriteReg(XPSR, 0x01000000)  returns 0x00 (0000ms, 167972ms total)
T3200 20012:810 JLINK_WriteReg(MSP, 0x20001000)  returns 0x00 (0000ms, 167973ms total)
T3200 20012:810 JLINK_WriteReg(PSP, 0x20001000)  returns 0x00 (0000ms, 167973ms total)
T3200 20012:810 JLINK_WriteReg(CFBP, 0x00000000)  returns 0x00 (0000ms, 167973ms total)
T3200 20012:810 JLINK_SetBPEx(Addr = 0x20000000, Type = 0xFFFFFFF2)  returns 0x0000000A (0000ms, 167973ms total)
T3200 20012:811 JLINK_Go() -- CPU_ReadMem(4 bytes @ 0xE0001000) (0004ms, 167977ms total)
T3200 20012:815 JLINK_IsHalted()  returns FALSE (0002ms, 167979ms total)
T3200 20012:846 JLINK_IsHalted() -- CPU_ReadMem(2 bytes @ 0x20000000)  returns TRUE (0005ms, 167982ms total)
T3200 20012:851 JLINK_ReadReg(R15 (PC))  returns 0x20000000 (0000ms, 167977ms total)
T3200 20012:851 JLINK_ClrBPEx(BPHandle = 0x0000000A)  returns 0x00 (0001ms, 167978ms total)
T3200 20012:852 JLINK_ReadReg(R0)  returns 0x00000000 (0000ms, 167978ms total)
T3200 20012:854 JLINK_WriteMem(0x20000198, 0x0268 Bytes, ...) - Data: 08 0A 01 90 62 69 01 21 01 98 90 47 05 1E 2D D0 ... -- CPU_WriteMem(616 bytes @ 0x20000198)  returns 0x268 (0003ms, 167981ms total)
T3200 20012:857 JLINK_WriteMem(0x20000400, 0x0198 Bytes, ...) - Data: 05 D1 4F F0 01 09 62 69 49 46 01 98 90 47 21 69 ... -- CPU_WriteMem(408 bytes @ 0x20000400)  returns 0x198 (0003ms, 167984ms total)
T3200 20012:860 JLINK_WriteReg(R0, 0x08000C00)  returns 0x00 (0000ms, 167984ms total)
T3200 20012:860 JLINK_WriteReg(R1, 0x00000400)  returns 0x00 (0000ms, 167984ms total)
T3200 20012:860 JLINK_WriteReg(R2, 0x20000198)  returns 0x00 (0001ms, 167985ms total)
T3200 20012:861 JLINK_WriteReg(R3, 0x00000000)  returns 0x00 (0000ms, 167985ms total)
T3200 20012:861 JLINK_WriteReg(R4, 0x00000000)  returns 0x00 (0000ms, 167985ms total)
T3200 20012:861 JLINK_WriteReg(R5, 0x00000000)  returns 0x00 (0000ms, 167985ms total)
T3200 20012:862 JLINK_WriteReg(R6, 0x00000000)  returns 0x00 (0000ms, 167986ms total)
T3200 20012:862 JLINK_WriteReg(R7, 0x00000000)  returns 0x00 (0000ms, 167986ms total)
T3200 20012:862 JLINK_WriteReg(R8, 0x00000000)  returns 0x00 (0000ms, 167986ms total)
T3200 20012:862 JLINK_WriteReg(R9, 0x20000194)  returns 0x00 (0000ms, 167986ms total)
T3200 20012:863 JLINK_WriteReg(R10, 0x00000000)  returns 0x00 (0000ms, 167987ms total)
T3200 20012:863 JLINK_WriteReg(R11, 0x00000000)  returns 0x00 (0000ms, 167987ms total)
T3200 20012:863 JLINK_WriteReg(R12, 0x00000000)  returns 0x00 (0000ms, 167987ms total)
T3200 20012:863 JLINK_WriteReg(R13 (SP), 0x20001000)  returns 0x00 (0000ms, 167987ms total)
T3200 20012:864 JLINK_WriteReg(R14, 0x20000001)  returns 0x00 (0000ms, 167988ms total)
T3200 20012:864 JLINK_WriteReg(R15 (PC), 0x20000120)  returns 0x00 (0000ms, 167988ms total)
T3200 20012:864 JLINK_WriteReg(XPSR, 0x01000000)  returns 0x00 (0000ms, 167988ms total)
T3200 20012:864 JLINK_WriteReg(MSP, 0x20001000)  returns 0x00 (0000ms, 167988ms total)
T3200 20012:864 JLINK_WriteReg(PSP, 0x20001000)  returns 0x00 (0001ms, 167989ms total)
T3200 20012:865 JLINK_WriteReg(CFBP, 0x00000000)  returns 0x00 (0000ms, 167989ms total)
T3200 20012:865 JLINK_SetBPEx(Addr = 0x20000000, Type = 0xFFFFFFF2)  returns 0x0000000B (0000ms, 167989ms total)
T3200 20012:865 JLINK_Go() -- CPU_ReadMem(4 bytes @ 0xE0001000) (0004ms, 167993ms total)
T3200 20012:869 JLINK_IsHalted()  returns FALSE (0002ms, 167995ms total)
T3200 20012:899 JLINK_IsHalted() -- CPU_ReadMem(2 bytes @ 0x20000000)  returns TRUE (0005ms, 167998ms total)
T3200 20012:904 JLINK_ReadReg(R15 (PC))  returns 0x20000000 (0000ms, 167993ms total)
T3200 20012:904 JLINK_ClrBPEx(BPHandle = 0x0000000B)  returns 0x00 (0001ms, 167994ms total)
T3200 20012:905 JLINK_ReadReg(R0)  returns 0x00000000 (0000ms, 167994ms total)
T3200 20012:907 JLINK_WriteMem(0x20000198, 0x0268 Bytes, ...) - Data: 00 20 12 68 0A 42 18 BF 01 20 70 47 10 B4 42 68 ... -- CPU_WriteMem(616 bytes @ 0x20000198)  returns 0x268 (0004ms, 167998ms total)
T3200 20012:911 JLINK_WriteMem(0x20000400, 0x0198 Bytes, ...) - Data: 1C C0 00 DF CE E7 00 00 38 01 00 20 01 00 04 00 ... -- CPU_WriteMem(408 bytes @ 0x20000400)  returns 0x198 (0003ms, 168001ms total)
T3200 20012:914 JLINK_WriteReg(R0, 0x08001000)  returns 0x00 (0000ms, 168001ms total)
T3200 20012:914 JLINK_WriteReg(R1, 0x00000400)  returns 0x00 (0000ms, 168001ms total)
T3200 20012:915 JLINK_WriteReg(R2, 0x20000198)  returns 0x00 (0000ms, 168002ms total)
T3200 20012:915 JLINK_WriteReg(R3, 0x00000000)  returns 0x00 (0000ms, 168002ms total)
T3200 20012:915 JLINK_WriteReg(R4, 0x00000000)  returns 0x00 (0000ms, 168002ms total)
T3200 20012:915 JLINK_WriteReg(R5, 0x00000000)  returns 0x00 (0001ms, 168003ms total)
T3200 20012:916 JLINK_WriteReg(R6, 0x00000000)  returns 0x00 (0000ms, 168003ms total)
T3200 20012:916 JLINK_WriteReg(R7, 0x00000000)  returns 0x00 (0000ms, 168003ms total)
T3200 20012:916 JLINK_WriteReg(R8, 0x00000000)  returns 0x00 (0000ms, 168003ms total)
T3200 20012:916 JLINK_WriteReg(R9, 0x20000194)  returns 0x00 (0001ms, 168004ms total)
T3200 20012:917 JLINK_WriteReg(R10, 0x00000000)  returns 0x00 (0000ms, 168004ms total)
T3200 20012:917 JLINK_WriteReg(R11, 0x00000000)  returns 0x00 (0000ms, 168004ms total)
T3200 20012:917 JLINK_WriteReg(R12, 0x00000000)  returns 0x00 (0000ms, 168004ms total)
T3200 20012:918 JLINK_WriteReg(R13 (SP), 0x20001000)  returns 0x00 (0000ms, 168004ms total)
T3200 20012:918 JLINK_WriteReg(R14, 0x20000001)  returns 0x00 (0000ms, 168004ms total)
T3200 20012:918 JLINK_WriteReg(R15 (PC), 0x20000120)  returns 0x00 (0000ms, 168004ms total)
T3200 20012:918 JLINK_WriteReg(XPSR, 0x01000000)  returns 0x00 (0001ms, 168005ms total)
T3200 20012:919 JLINK_WriteReg(MSP, 0x20001000)  returns 0x00 (0000ms, 168005ms total)
T3200 20012:919 JLINK_WriteReg(PSP, 0x20001000)  returns 0x00 (0000ms, 168005ms total)
T3200 20012:919 JLINK_WriteReg(CFBP, 0x00000000)  returns 0x00 (0000ms, 168005ms total)
T3200 20012:919 JLINK_SetBPEx(Addr = 0x20000000, Type = 0xFFFFFFF2)  returns 0x0000000C (0001ms, 168006ms total)
T3200 20012:920 JLINK_Go() -- CPU_ReadMem(4 bytes @ 0xE0001000) (0004ms, 168010ms total)
T3200 20012:924 JLINK_IsHalted()  returns FALSE (0001ms, 168011ms total)
T3200 20012:945 JLINK_IsHalted() -- CPU_ReadMem(2 bytes @ 0x20000000)  returns TRUE (0005ms, 168015ms total)
T3200 20012:951 JLINK_ReadReg(R15 (PC))  returns 0x20000000 (0000ms, 168010ms total)
T3200 20012:951 JLINK_ClrBPEx(BPHandle = 0x0000000C)  returns 0x00 (0000ms, 168010ms total)
T3200 20012:951 JLINK_ReadReg(R0)  returns 0x00000000 (0000ms, 168010ms total)
T3200 20012:953 JLINK_WriteMem(0x20000198, 0x0268 Bytes, ...) - Data: 02 90 04 20 AD F8 0C 40 AD F8 04 00 AD F8 10 40 ... -- CPU_WriteMem(616 bytes @ 0x20000198)  returns 0x268 (0003ms, 168013ms total)
T3200 20012:956 JLINK_WriteMem(0x20000400, 0x0198 Bytes, ...) - Data: 41 EC 1A 0B B0 EE 4D 0A F0 EE 6D 0A 03 F0 FC F8 ... -- CPU_WriteMem(408 bytes @ 0x20000400)  returns 0x198 (0003ms, 168016ms total)
T3200 20012:959 JLINK_WriteReg(R0, 0x08001400)  returns 0x00 (0000ms, 168016ms total)
T3200 20012:959 JLINK_WriteReg(R1, 0x00000400)  returns 0x00 (0001ms, 168017ms total)
T3200 20012:960 JLINK_WriteReg(R2, 0x20000198)  returns 0x00 (0000ms, 168017ms total)
T3200 20012:960 JLINK_WriteReg(R3, 0x00000000)  returns 0x00 (0000ms, 168017ms total)
T3200 20012:960 JLINK_WriteReg(R4, 0x00000000)  returns 0x00 (0000ms, 168017ms total)
T3200 20012:960 JLINK_WriteReg(R5, 0x00000000)  returns 0x00 (0001ms, 168018ms total)
T3200 20012:961 JLINK_WriteReg(R6, 0x00000000)  returns 0x00 (0000ms, 168018ms total)
T3200 20012:961 JLINK_WriteReg(R7, 0x00000000)  returns 0x00 (0000ms, 168018ms total)
T3200 20012:961 JLINK_WriteReg(R8, 0x00000000)  returns 0x00 (0000ms, 168018ms total)
T3200 20012:961 JLINK_WriteReg(R9, 0x20000194)  returns 0x00 (0001ms, 168019ms total)
T3200 20012:962 JLINK_WriteReg(R10, 0x00000000)  returns 0x00 (0000ms, 168019ms total)
T3200 20012:962 JLINK_WriteReg(R11, 0x00000000)  returns 0x00 (0000ms, 168019ms total)
T3200 20012:962 JLINK_WriteReg(R12, 0x00000000)  returns 0x00 (0000ms, 168019ms total)
T3200 20012:962 JLINK_WriteReg(R13 (SP), 0x20001000)  returns 0x00 (0001ms, 168020ms total)
T3200 20012:963 JLINK_WriteReg(R14, 0x20000001)  returns 0x00 (0000ms, 168020ms total)
T3200 20012:963 JLINK_WriteReg(R15 (PC), 0x20000120)  returns 0x00 (0000ms, 168020ms total)
T3200 20012:963 JLINK_WriteReg(XPSR, 0x01000000)  returns 0x00 (0000ms, 168020ms total)
T3200 20012:963 JLINK_WriteReg(MSP, 0x20001000)  returns 0x00 (0001ms, 168021ms total)
T3200 20012:964 JLINK_WriteReg(PSP, 0x20001000)  returns 0x00 (0000ms, 168021ms total)
T3200 20012:964 JLINK_WriteReg(CFBP, 0x00000000)  returns 0x00 (0000ms, 168021ms total)
T3200 20012:964 JLINK_SetBPEx(Addr = 0x20000000, Type = 0xFFFFFFF2)  returns 0x0000000D (0000ms, 168021ms total)
T3200 20012:964 JLINK_Go() -- CPU_ReadMem(4 bytes @ 0xE0001000) (0005ms, 168026ms total)
T3200 20012:969 JLINK_IsHalted()  returns FALSE (0001ms, 168027ms total)
T3200 20013:007 JLINK_IsHalted() -- CPU_ReadMem(2 bytes @ 0x20000000)  returns TRUE (0005ms, 168031ms total)
T3200 20013:012 JLINK_ReadReg(R15 (PC))  returns 0x20000000 (0000ms, 168026ms total)
T3200 20013:012 JLINK_ClrBPEx(BPHandle = 0x0000000D)  returns 0x00 (0001ms, 168027ms total)
T3200 20013:013 JLINK_ReadReg(R0)  returns 0x00000000 (0000ms, 168027ms total)
T3200 20013:016 JLINK_WriteMem(0x20000198, 0x0268 Bytes, ...) - Data: 36 4A 98 42 02 BF CA 60 BD E8 F0 03 70 47 DF F8 ... -- CPU_WriteMem(616 bytes @ 0x20000198)  returns 0x268 (0003ms, 168030ms total)
T3200 20013:019 JLINK_WriteMem(0x20000400, 0x0198 Bytes, ...) - Data: 01 21 00 F0 33 FF 02 20 8D F8 05 00 8D F8 04 50 ... -- CPU_WriteMem(408 bytes @ 0x20000400)  returns 0x198 (0003ms, 168033ms total)
T3200 20013:022 JLINK_WriteReg(R0, 0x08001800)  returns 0x00 (0000ms, 168033ms total)
T3200 20013:022 JLINK_WriteReg(R1, 0x00000400)  returns 0x00 (0000ms, 168033ms total)
T3200 20013:023 JLINK_WriteReg(R2, 0x20000198)  returns 0x00 (0000ms, 168033ms total)
T3200 20013:023 JLINK_WriteReg(R3, 0x00000000)  returns 0x00 (0000ms, 168033ms total)
T3200 20013:023 JLINK_WriteReg(R4, 0x00000000)  returns 0x00 (0000ms, 168033ms total)
T3200 20013:023 JLINK_WriteReg(R5, 0x00000000)  returns 0x00 (0001ms, 168034ms total)
T3200 20013:024 JLINK_WriteReg(R6, 0x00000000)  returns 0x00 (0000ms, 168034ms total)
T3200 20013:024 JLINK_WriteReg(R7, 0x00000000)  returns 0x00 (0000ms, 168034ms total)
T3200 20013:024 JLINK_WriteReg(R8, 0x00000000)  returns 0x00 (0000ms, 168034ms total)
T3200 20013:025 JLINK_WriteReg(R9, 0x20000194)  returns 0x00 (0000ms, 168035ms total)
T3200 20013:025 JLINK_WriteReg(R10, 0x00000000)  returns 0x00 (0000ms, 168035ms total)
T3200 20013:025 JLINK_WriteReg(R11, 0x00000000)  returns 0x00 (0000ms, 168035ms total)
T3200 20013:025 JLINK_WriteReg(R12, 0x00000000)  returns 0x00 (0001ms, 168036ms total)
T3200 20013:026 JLINK_WriteReg(R13 (SP), 0x20001000)  returns 0x00 (0000ms, 168036ms total)
T3200 20013:026 JLINK_WriteReg(R14, 0x20000001)  returns 0x00 (0000ms, 168036ms total)
T3200 20013:026 JLINK_WriteReg(R15 (PC), 0x20000120)  returns 0x00 (0000ms, 168036ms total)
T3200 20013:026 JLINK_WriteReg(XPSR, 0x01000000)  returns 0x00 (0001ms, 168037ms total)
T3200 20013:027 JLINK_WriteReg(MSP, 0x20001000)  returns 0x00 (0000ms, 168037ms total)
T3200 20013:027 JLINK_WriteReg(PSP, 0x20001000)  returns 0x00 (0000ms, 168037ms total)
T3200 20013:027 JLINK_WriteReg(CFBP, 0x00000000)  returns 0x00 (0001ms, 168038ms total)
T3200 20013:028 JLINK_SetBPEx(Addr = 0x20000000, Type = 0xFFFFFFF2)  returns 0x0000000E (0000ms, 168038ms total)
